Freq.	V(vout)
1.00000000000000e+002	(3.94385631165145e+000dB,-1.15958109881242e-002°)
1.00230523807790e+002	(3.94385631128017e+000dB,-1.16225420930276e-002°)
1.00461579027840e+002	(3.94385631090717e+000dB,-1.16493348194910e-002°)
1.00693166885180e+002	(3.94385631053245e+000dB,-1.16761893095666e-002°)
1.00925288607668e+002	(3.94385631015600e+000dB,-1.17031057056345e-002°)
1.01157945425990e+002	(3.94385630977782e+000dB,-1.17300841504025e-002°)
1.01391138573668e+002	(3.94385630939788e+000dB,-1.17571247869079e-002°)
1.01624869287070e+002	(3.94385630901620e+000dB,-1.17842277585172e-002°)
1.01859138805412e+002	(3.94385630863276e+000dB,-1.18113932089277e-002°)
1.02093948370768e+002	(3.94385630824754e+000dB,-1.18386212821679e-002°)
1.02329299228075e+002	(3.94385630786054e+000dB,-1.18659121225985e-002°)
1.02565192625141e+002	(3.94385630747176e+000dB,-1.18932658749125e-002°)
1.02801629812647e+002	(3.94385630708119e+000dB,-1.19206826841371e-002°)
1.03038612044162e+002	(3.94385630668881e+000dB,-1.19481626956333e-002°)
1.03276140576140e+002	(3.94385630629462e+000dB,-1.19757060550973e-002°)
1.03514216667934e+002	(3.94385630589861e+000dB,-1.20033129085614e-002°)
1.03752841581801e+002	(3.94385630550077e+000dB,-1.20309834023943e-002°)
1.03992016582906e+002	(3.94385630510110e+000dB,-1.20587176833023e-002°)
1.04231742939330e+002	(3.94385630469959e+000dB,-1.20865158983296e-002°)
1.04472021922080e+002	(3.94385630429622e+000dB,-1.21143781948597e-002°)
1.04712854805090e+002	(3.94385630389098e+000dB,-1.21423047206157e-002°)
1.04954242865232e+002	(3.94385630348387e+000dB,-1.21702956236612e-002°)
1.05196187382322e+002	(3.94385630307489e+000dB,-1.21983510524012e-002°)
1.05438689639126e+002	(3.94385630266402e+000dB,-1.22264711555827e-002°)
1.05681750921366e+002	(3.94385630225125e+000dB,-1.22546560822959e-002°)
1.05925372517729e+002	(3.94385630183658e+000dB,-1.22829059819742e-002°)
1.06169555719872e+002	(3.94385630142000e+000dB,-1.23112210043959e-002°)
1.06414301822431e+002	(3.94385630100149e+000dB,-1.23396012996844e-002°)
1.06659612123026e+002	(3.94385630058104e+000dB,-1.23680470183092e-002°)
1.06905487922266e+002	(3.94385630015867e+000dB,-1.23965583110866e-002°)
1.07151930523760e+002	(3.94385629973433e+000dB,-1.24251353291807e-002°)
1.07398941234124e+002	(3.94385629930804e+000dB,-1.24537782241039e-002°)
1.07646521362983e+002	(3.94385629887979e+000dB,-1.24824871477180e-002°)
1.07894672222983e+002	(3.94385629844955e+000dB,-1.25112622522350e-002°)
1.08143395129794e+002	(3.94385629801733e+000dB,-1.25401036902174e-002°)
1.08392691402120e+002	(3.94385629758312e+000dB,-1.25690116145797e-002°)
1.08642562361706e+002	(3.94385629714690e+000dB,-1.25979861785889e-002°)
1.08893009333343e+002	(3.94385629670866e+000dB,-1.26270275358652e-002°)
1.09144033644875e+002	(3.94385629626840e+000dB,-1.26561358403830e-002°)
1.09395636627209e+002	(3.94385629582612e+000dB,-1.26853112464715e-002°)
1.09647819614318e+002	(3.94385629538179e+000dB,-1.27145539088159e-002°)
1.09900583943252e+002	(3.94385629493541e+000dB,-1.27438639824579e-002°)
1.10153930954141e+002	(3.94385629448697e+000dB,-1.27732416227965e-002°)
1.10407861990207e+002	(3.94385629403646e+000dB,-1.28026869855890e-002°)
1.10662378397766e+002	(3.94385629358387e+000dB,-1.28322002269519e-002°)
1.10917481526240e+002	(3.94385629312919e+000dB,-1.28617815033613e-002°)
1.11173172728159e+002	(3.94385629267241e+000dB,-1.28914309716543e-002°)
1.11429453359173e+002	(3.94385629221353e+000dB,-1.29211487890293e-002°)
1.11686324778056e+002	(3.94385629175252e+000dB,-1.29509351130474e-002°)
1.11943788346715e+002	(3.94385629128939e+000dB,-1.29807901016325e-002°)
1.12201845430196e+002	(3.94385629082412e+000dB,-1.30107139130728e-002°)
1.12460497396692e+002	(3.94385629035670e+000dB,-1.30407067060214e-002°)
1.12719745617551e+002	(3.94385628988713e+000dB,-1.30707686394971e-002°)
1.12979591467279e+002	(3.94385628941539e+000dB,-1.31008998728852e-002°)
1.13240036323555e+002	(3.94385628894146e+000dB,-1.31311005659387e-002°)
1.13501081567231e+002	(3.94385628846536e+000dB,-1.31613708787784e-002°)
1.13762728582343e+002	(3.94385628798706e+000dB,-1.31917109718945e-002°)
1.14024978756117e+002	(3.94385628750654e+000dB,-1.32221210061474e-002°)
1.14287833478977e+002	(3.94385628702381e+000dB,-1.32526011427678e-002°)
1.14551294144553e+002	(3.94385628653885e+000dB,-1.32831515433583e-002°)
1.14815362149688e+002	(3.94385628605165e+000dB,-1.33137723698943e-002°)
1.15080038894443e+002	(3.94385628556221e+000dB,-1.33444637847242e-002°)
1.15345325782109e+002	(3.94385628507050e+000dB,-1.33752259505709e-002°)
1.15611224219209e+002	(3.94385628457653e+000dB,-1.34060590305323e-002°)
1.15877735615512e+002	(3.94385628408028e+000dB,-1.34369631880822e-002°)
1.16144861384034e+002	(3.94385628358172e+000dB,-1.34679385870716e-002°)
1.16412602941049e+002	(3.94385628308088e+000dB,-1.34989853917287e-002°)
1.16680961706096e+002	(3.94385628257772e+000dB,-1.35301037666607e-002°)
1.16949939101987e+002	(3.94385628207224e+000dB,-1.35612938768541e-002°)
1.17219536554813e+002	(3.94385628156443e+000dB,-1.35925558876758e-002°)
1.17489755493952e+002	(3.94385628105426e+000dB,-1.36238899648737e-002°)
1.17760597352080e+002	(3.94385628054176e+000dB,-1.36552962745780e-002°)
1.18032063565172e+002	(3.94385628002688e+000dB,-1.36867749833019e-002°)
1.18304155572516e+002	(3.94385627950962e+000dB,-1.37183262579424e-002°)
1.18576874816716e+002	(3.94385627898998e+000dB,-1.37499502657811e-002°)
1.18850222743701e+002	(3.94385627846794e+000dB,-1.37816471744852e-002°)
1.19124200802737e+002	(3.94385627794348e+000dB,-1.38134171521088e-002°)
1.19398810446427e+002	(3.94385627741661e+000dB,-1.38452603670930e-002°)
1.19674053130724e+002	(3.94385627688731e+000dB,-1.38771769882673e-002°)
1.19949930314937e+002	(3.94385627635556e+000dB,-1.39091671848507e-002°)
1.20226443461741e+002	(3.94385627582136e+000dB,-1.39412311264517e-002°)
1.20503594037179e+002	(3.94385627528469e+000dB,-1.39733689830702e-002°)
1.20781383510677e+002	(3.94385627474555e+000dB,-1.40055809250981e-002°)
1.21059813355048e+002	(3.94385627420392e+000dB,-1.40378671233196e-002°)
1.21338885046497e+002	(3.94385627365979e+000dB,-1.40702277489131e-002°)
1.21618600064636e+002	(3.94385627311314e+000dB,-1.41026629734513e-002°)
1.21898959892486e+002	(3.94385627256397e+000dB,-1.41351729689026e-002°)
1.22179966016487e+002	(3.94385627201227e+000dB,-1.41677579076317e-002°)
1.22461619926504e+002	(3.94385627145802e+000dB,-1.42004179624007e-002°)
1.22743923115840e+002	(3.94385627090121e+000dB,-1.42331533063699e-002°)
1.23026877081238e+002	(3.94385627034183e+000dB,-1.42659641130988e-002°)
1.23310483322890e+002	(3.94385626977987e+000dB,-1.42988505565471e-002°)
1.23594743344450e+002	(3.94385626921532e+000dB,-1.43318128110754e-002°)
1.23879658653036e+002	(3.94385626864816e+000dB,-1.43648510514463e-002°)
1.24165230759240e+002	(3.94385626807839e+000dB,-1.43979654528252e-002°)
1.24451461177138e+002	(3.94385626750598e+000dB,-1.44311561907814e-002°)
1.24738351424294e+002	(3.94385626693093e+000dB,-1.44644234412888e-002°)
1.25025903021771e+002	(3.94385626635322e+000dB,-1.44977673807271e-002°)
1.25314117494141e+002	(3.94385626577285e+000dB,-1.45311881858824e-002°)
1.25602996369487e+002	(3.94385626518981e+000dB,-1.45646860339487e-002°)
1.25892541179416e+002	(3.94385626460407e+000dB,-1.45982611025280e-002°)
1.26182753459066e+002	(3.94385626401563e+000dB,-1.46319135696321e-002°)
1.26473634747114e+002	(3.94385626342447e+000dB,-1.46656436136830e-002°)
1.26765186585784e+002	(3.94385626283057e+000dB,-1.46994514135140e-002°)
1.27057410520853e+002	(3.94385626223395e+000dB,-1.47333371483707e-002°)
1.27350308101665e+002	(3.94385626163456e+000dB,-1.47673009979117e-002°)
1.27643880881134e+002	(3.94385626103242e+000dB,-1.48013431422103e-002°)
1.27938130415752e+002	(3.94385626042748e+000dB,-1.48354637617541e-002°)
1.28233058265601e+002	(3.94385625981976e+000dB,-1.48696630374476e-002°)
1.28528665994361e+002	(3.94385625920923e+000dB,-1.49039411506118e-002°)
1.28824955169313e+002	(3.94385625859589e+000dB,-1.49382982829857e-002°)
1.29121927361353e+002	(3.94385625797971e+000dB,-1.49727346167274e-002°)
1.29419584144998e+002	(3.94385625736069e+000dB,-1.50072503344151e-002°)
1.29717927098395e+002	(3.94385625673881e+000dB,-1.50418456190475e-002°)
1.30016957803328e+002	(3.94385625611406e+000dB,-1.50765206540453e-002°)
1.30316677845229e+002	(3.94385625548643e+000dB,-1.51112756232523e-002°)
1.30617088813183e+002	(3.94385625485591e+000dB,-1.51461107109356e-002°)
1.30918192299940e+002	(3.94385625422246e+000dB,-1.51810261017876e-002°)
1.31219989901920e+002	(3.94385625358610e+000dB,-1.52160219809260e-002°)
1.31522483219223e+002	(3.94385625294680e+000dB,-1.52510985338956e-002°)
1.31825673855640e+002	(3.94385625230455e+000dB,-1.52862559466686e-002°)
1.32129563418657e+002	(3.94385625165933e+000dB,-1.53214944056462e-002°)
1.32434153519466e+002	(3.94385625101114e+000dB,-1.53568140976592e-002°)
1.32739445772973e+002	(3.94385625035996e+000dB,-1.53922152099691e-002°)
1.33045441797808e+002	(3.94385624970576e+000dB,-1.54276979302689e-002°)
1.33352143216332e+002	(3.94385624904855e+000dB,-1.54632624466846e-002°)
1.33659551654643e+002	(3.94385624838831e+000dB,-1.54989089477755e-002°)
1.33967668742593e+002	(3.94385624772501e+000dB,-1.55346376225361e-002°)
1.34276496113786e+002	(3.94385624705866e+000dB,-1.55704486603960e-002°)
1.34586035405594e+002	(3.94385624638923e+000dB,-1.56063422512217e-002°)
1.34896288259165e+002	(3.94385624571671e+000dB,-1.56423185853177e-002°)
1.35207256319427e+002	(3.94385624504109e+000dB,-1.56783778534266e-002°)
1.35518941235103e+002	(3.94385624436234e+000dB,-1.57145202467313e-002°)
1.35831344658715e+002	(3.94385624368047e+000dB,-1.57507459568549e-002°)
1.36144468246594e+002	(3.94385624299545e+000dB,-1.57870551758627e-002°)
1.36458313658892e+002	(3.94385624230726e+000dB,-1.58234480962625e-002°)
1.36772882559584e+002	(3.94385624161590e+000dB,-1.58599249110059e-002°)
1.37088176616484e+002	(3.94385624092135e+000dB,-1.58964858134892e-002°)
1.37404197501251e+002	(3.94385624022359e+000dB,-1.59331309975549e-002°)
1.37720946889394e+002	(3.94385623952261e+000dB,-1.59698606574918e-002°)
1.38038426460288e+002	(3.94385623881840e+000dB,-1.60066749880371e-002°)
1.38356637897177e+002	(3.94385623811093e+000dB,-1.60435741843767e-002°)
1.38675582887188e+002	(3.94385623740021e+000dB,-1.60805584421462e-002°)
1.38995263121334e+002	(3.94385623668619e+000dB,-1.61176279574327e-002°)
1.39315680294529e+002	(3.94385623596889e+000dB,-1.61547829267749e-002°)
1.39636836105593e+002	(3.94385623524826e+000dB,-1.61920235471649e-002°)
1.39958732257261e+002	(3.94385623452432e+000dB,-1.62293500160485e-002°)
1.40281370456195e+002	(3.94385623379703e+000dB,-1.62667625313270e-002°)
1.40604752412990e+002	(3.94385623306639e+000dB,-1.63042612913579e-002°)
1.40928879842186e+002	(3.94385623233238e+000dB,-1.63418464949558e-002°)
1.41253754462274e+002	(3.94385623159498e+000dB,-1.63795183413937e-002°)
1.41579377995707e+002	(3.94385623085417e+000dB,-1.64172770304039e-002°)
1.41905752168908e+002	(3.94385623010994e+000dB,-1.64551227621792e-002°)
1.42232878712281e+002	(3.94385622936228e+000dB,-1.64930557373739e-002°)
1.42560759360218e+002	(3.94385622861117e+000dB,-1.65310761571049e-002°)
1.42889395851109e+002	(3.94385622785659e+000dB,-1.65691842229525e-002°)
1.43218789927353e+002	(3.94385622709853e+000dB,-1.66073801369621e-002°)
1.43548943335365e+002	(3.94385622633697e+000dB,-1.66456641016443e-002°)
1.43879857825583e+002	(3.94385622557189e+000dB,-1.66840363199771e-002°)
1.44211535152486e+002	(3.94385622480328e+000dB,-1.67224969954061e-002°)
1.44543977074592e+002	(3.94385622403112e+000dB,-1.67610463318458e-002°)
1.44877185354475e+002	(3.94385622325541e+000dB,-1.67996845336810e-002°)
1.45211161758773e+002	(3.94385622247610e+000dB,-1.68384118057676e-002°)
1.45545908058195e+002	(3.94385622169321e+000dB,-1.68772283534338e-002°)
1.45881426027534e+002	(3.94385622090670e+000dB,-1.69161343824809e-002°)
1.46217717445671e+002	(3.94385622011656e+000dB,-1.69551300991849e-002°)
1.46554784095590e+002	(3.94385621932277e+000dB,-1.69942157102971e-002°)
1.46892627764385e+002	(3.94385621852531e+000dB,-1.70333914230454e-002°)
1.47231250243271e+002	(3.94385621772418e+000dB,-1.70726574451357e-002°)
1.47570653327588e+002	(3.94385621691935e+000dB,-1.71120139847525e-002°)
1.47910838816819e+002	(3.94385621611080e+000dB,-1.71514612505600e-002°)
1.48251808514594e+002	(3.94385621529852e+000dB,-1.71909994517039e-002°)
1.48593564228699e+002	(3.94385621448249e+000dB,-1.72306287978116e-002°)
1.48936107771090e+002	(3.94385621366270e+000dB,-1.72703494989940e-002°)
1.49279440957898e+002	(3.94385621283912e+000dB,-1.73101617658463e-002°)
1.49623565609442e+002	(3.94385621201175e+000dB,-1.73500658094491e-002°)
1.49968483550236e+002	(3.94385621118055e+000dB,-1.73900618413697e-002°)
1.50314196609001e+002	(3.94385621034550e+000dB,-1.74301500736631e-002°)
1.50660706618673e+002	(3.94385620950661e+000dB,-1.74703307188729e-002°)
1.51008015416413e+002	(3.94385620866385e+000dB,-1.75106039900330e-002°)
1.51356124843619e+002	(3.94385620781721e+000dB,-1.75509701006681e-002°)
1.51705036745932e+002	(3.94385620696664e+000dB,-1.75914292647955e-002°)
1.52054752973248e+002	(3.94385620611216e+000dB,-1.76319816969254e-002°)
1.52405275379728e+002	(3.94385620525372e+000dB,-1.76726276120629e-002°)
1.52756605823806e+002	(3.94385620439133e+000dB,-1.77133672257086e-002°)
1.53108746168202e+002	(3.94385620352496e+000dB,-1.77542007538596e-002°)
1.53461698279928e+002	(3.94385620265459e+000dB,-1.77951284130114e-002°)
1.53815464030302e+002	(3.94385620178020e+000dB,-1.78361504201582e-002°)
1.54170045294954e+002	(3.94385620090177e+000dB,-1.78772669927947e-002°)
1.54525443953840e+002	(3.94385620001929e+000dB,-1.79184783489168e-002°)
1.54881661891247e+002	(3.94385619913274e+000dB,-1.79597847070229e-002°)
1.55238700995807e+002	(3.94385619824209e+000dB,-1.80011862861152e-002°)
1.55596563160506e+002	(3.94385619734734e+000dB,-1.80426833057008e-002°)
1.55955250282694e+002	(3.94385619644845e+000dB,-1.80842759857927e-002°)
1.56314764264094e+002	(3.94385619554541e+000dB,-1.81259645469111e-002°)
1.56675107010813e+002	(3.94385619463821e+000dB,-1.81677492100845e-002°)
1.57036280433354e+002	(3.94385619372682e+000dB,-1.82096301968511e-002°)
1.57398286446620e+002	(3.94385619281122e+000dB,-1.82516077292597e-002°)
1.57761126969933e+002	(3.94385619189140e+000dB,-1.82936820298708e-002°)
1.58124803927037e+002	(3.94385619096733e+000dB,-1.83358533217583e-002°)
1.58489319246110e+002	(3.94385619003899e+000dB,-1.83781218285101e-002°)
1.58854674859776e+002	(3.94385618910637e+000dB,-1.84204877742297e-002°)
1.59220872705115e+002	(3.94385618816944e+000dB,-1.84629513835369e-002°)
1.59587914723672e+002	(3.94385618722820e+000dB,-1.85055128815695e-002°)
1.59955802861465e+002	(3.94385618628260e+000dB,-1.85481724939844e-002°)
1.60324539069002e+002	(3.94385618533264e+000dB,-1.85909304469586e-002°)
1.60694125301286e+002	(3.94385618437829e+000dB,-1.86337869671904e-002°)
1.61064563517825e+002	(3.94385618341955e+000dB,-1.86767422819007e-002°)
1.61435855682647e+002	(3.94385618245638e+000dB,-1.87197966188344e-002°)
1.61808003764305e+002	(3.94385618148876e+000dB,-1.87629502062613e-002°)
1.62181009735891e+002	(3.94385618051667e+000dB,-1.88062032729773e-002°)
1.62554875575047e+002	(3.94385617954009e+000dB,-1.88495560483058e-002°)
1.62929603263970e+002	(3.94385617855902e+000dB,-1.88930087620990e-002°)
1.63305194789432e+002	(3.94385617757340e+000dB,-1.89365616447387e-002°)
1.63681652142779e+002	(3.94385617658324e+000dB,-1.89802149271379e-002°)
1.64058977319952e+002	(3.94385617558851e+000dB,-1.90239688407420e-002°)
1.64437172321491e+002	(3.94385617458919e+000dB,-1.90678236175299e-002°)
1.64816239152549e+002	(3.94385617358526e+000dB,-1.91117794900150e-002°)
1.65196179822900e+002	(3.94385617257669e+000dB,-1.91558366912472e-002°)
1.65576996346951e+002	(3.94385617156347e+000dB,-1.91999954548132e-002°)
1.65958690743754e+002	(3.94385617054557e+000dB,-1.92442560148384e-002°)
1.66341265037015e+002	(3.94385616952297e+000dB,-1.92886186059878e-002°)
1.66724721255104e+002	(3.94385616849566e+000dB,-1.93330834634674e-002°)
1.67109061431069e+002	(3.94385616746359e+000dB,-1.93776508230253e-002°)
1.67494287602642e+002	(3.94385616642677e+000dB,-1.94223209209534e-002°)
1.67880401812254e+002	(3.94385616538516e+000dB,-1.94670939940880e-002°)
1.68267406107045e+002	(3.94385616433874e+000dB,-1.95119702798114e-002°)
1.68655302538872e+002	(3.94385616328749e+000dB,-1.95569500160532e-002°)
1.69044093164324e+002	(3.94385616223139e+000dB,-1.96020334412913e-002°)
1.69433780044731e+002	(3.94385616117042e+000dB,-1.96472207945536e-002°)
1.69824365246172e+002	(3.94385616010455e+000dB,-1.96925123154190e-002°)
1.70215850839493e+002	(3.94385615903376e+000dB,-1.97379082440183e-002°)
1.70608238900310e+002	(3.94385615795802e+000dB,-1.97834088210365e-002°)
1.71001531509027e+002	(3.94385615687733e+000dB,-1.98290142877130e-002°)
1.71395730750840e+002	(3.94385615579163e+000dB,-1.98747248858433e-002°)
1.71790838715757e+002	(3.94385615470094e+000dB,-1.99205408577804e-002°)
1.72186857498599e+002	(3.94385615360521e+000dB,-1.99664624464361e-002°)
1.72583789199018e+002	(3.94385615250441e+000dB,-2.00124898952819e-002°)
1.72981635921508e+002	(3.94385615139854e+000dB,-2.00586234483509e-002°)
1.73380399775412e+002	(3.94385615028756e+000dB,-2.01048633502383e-002°)
1.73780082874935e+002	(3.94385614917146e+000dB,-2.01512098461037e-002°)
1.74180687339159e+002	(3.94385614805021e+000dB,-2.01976631816713e-002°)
1.74582215292048e+002	(3.94385614692377e+000dB,-2.02442236032323e-002°)
1.74984668862463e+002	(3.94385614579214e+000dB,-2.02908913576451e-002°)
1.75388050184174e+002	(3.94385614465528e+000dB,-2.03376666923376e-002°)
1.75792361395867e+002	(3.94385614351319e+000dB,-2.03845498553079e-002°)
1.76197604641161e+002	(3.94385614236581e+000dB,-2.04315410951258e-002°)
1.76603782068614e+002	(3.94385614121314e+000dB,-2.04786406609341e-002°)
1.77010895831740e+002	(3.94385614005515e+000dB,-2.05258488024501e-002°)
1.77418948089014e+002	(3.94385613889182e+000dB,-2.05731657699664e-002°)
1.77827941003890e+002	(3.94385613772311e+000dB,-2.06205918143531e-002°)
1.78237876744807e+002	(3.94385613654901e+000dB,-2.06681271870580e-002°)
1.78648757485203e+002	(3.94385613536949e+000dB,-2.07157721401091e-002°)
1.79060585403527e+002	(3.94385613418452e+000dB,-2.07635269261150e-002°)
1.79473362683250e+002	(3.94385613299410e+000dB,-2.08113917982669e-002°)
1.79887091512876e+002	(3.94385613179816e+000dB,-2.08593670103394e-002°)
1.80301774085954e+002	(3.94385613059671e+000dB,-2.09074528166924e-002°)
1.80717412601090e+002	(3.94385612938972e+000dB,-2.09556494722719e-002°)
1.81134009261958e+002	(3.94385612817715e+000dB,-2.10039572326118e-002°)
1.81551566277311e+002	(3.94385612695900e+000dB,-2.10523763538350e-002°)
1.81970085860996e+002	(3.94385612573521e+000dB,-2.11009070926547e-002°)
1.82389570231961e+002	(3.94385612450578e+000dB,-2.11495497063760e-002°)
1.82810021614272e+002	(3.94385612327067e+000dB,-2.11983044528973e-002°)
1.83231442237119e+002	(3.94385612202987e+000dB,-2.12471715907112e-002°)
1.83653834334832e+002	(3.94385612078333e+000dB,-2.12961513789064e-002°)
1.84077200146893e+002	(3.94385611953103e+000dB,-2.13452440771689e-002°)
1.84501541917945e+002	(3.94385611827296e+000dB,-2.13944499457832e-002°)
1.84926861897805e+002	(3.94385611700909e+000dB,-2.14437692456338e-002°)
1.85353162341478e+002	(3.94385611573937e+000dB,-2.14932022382067e-002°)
1.85780445509167e+002	(3.94385611446380e+000dB,-2.15427491855907e-002°)
1.86208713666284e+002	(3.94385611318235e+000dB,-2.15924103504786e-002°)
1.86637969083464e+002	(3.94385611189497e+000dB,-2.16421859961691e-002°)
1.87068214036577e+002	(3.94385611060165e+000dB,-2.16920763865675e-002°)
1.87499450806739e+002	(3.94385610930236e+000dB,-2.17420817861876e-002°)
1.87931681680324e+002	(3.94385610799708e+000dB,-2.17922024601532e-002°)
1.88364908948977e+002	(3.94385610668577e+000dB,-2.18424386741989e-002°)
1.88799134909627e+002	(3.94385610536841e+000dB,-2.18927906946721e-002°)
