Freq.	V(vo)
1.00000000000000e+002	(-5.67981678542882e-003dB,-2.07358586186775e+000°)
1.00230293249304e+002	(-5.70599447259037e-003dB,-2.07835779942327e+000°)
1.00461116848415e+002	(-5.73229275027549e-003dB,-2.08314070297073e+000°)
1.00692472018692e+002	(-5.75871217346070e-003dB,-2.08793459760186e+000°)
1.00924359984308e+002	(-5.78525329964422e-003dB,-2.09273950846509e+000°)
1.01156781972255e+002	(-5.81191668890877e-003dB,-2.09755546076560e+000°)
1.01389739212350e+002	(-5.83870290389085e-003dB,-2.10238247976551e+000°)
1.01623232937243e+002	(-5.86561250982234e-003dB,-2.10722059078396e+000°)
1.01857264382422e+002	(-5.89264607452964e-003dB,-2.11206981919724e+000°)
1.02091834786220e+002	(-5.91980416843864e-003dB,-2.11693019043895e+000°)
1.02326945389823e+002	(-5.94708736460570e-003dB,-2.12180173000006e+000°)
1.02562597437275e+002	(-5.97449623870910e-003dB,-2.12668446342908e+000°)
1.02798792175484e+002	(-6.00203136908680e-003dB,-2.13157841633218e+000°)
1.03035530854230e+002	(-6.02969333670761e-003dB,-2.13648361437330e+000°)
1.03272814726172e+002	(-6.05748272523017e-003dB,-2.14140008327429e+000°)
1.03510645046852e+002	(-6.08540012097996e-003dB,-2.14632784881502e+000°)
1.03749023074706e+002	(-6.11344611298604e-003dB,-2.15126693683352e+000°)
1.03987950071066e+002	(-6.14162129296966e-003dB,-2.15621737322608e+000°)
1.04227427300169e+002	(-6.16992625538100e-003dB,-2.16117918394743e+000°)
1.04467456029164e+002	(-6.19836159738971e-003dB,-2.16615239501079e+000°)
1.04708037528119e+002	(-6.22692791891204e-003dB,-2.17113703248806e+000°)
1.04949173070025e+002	(-6.25562582262060e-003dB,-2.17613312250991e+000°)
1.05190863930806e+002	(-6.28445591394841e-003dB,-2.18114069126594e+000°)
1.05433111389323e+002	(-6.31341880111696e-003dB,-2.18615976500477e+000°)
1.05675916727383e+002	(-6.34251509513835e-003dB,-2.19119037003418e+000°)
1.05919281229746e+002	(-6.37174540981247e-003dB,-2.19623253272125e+000°)
1.06163206184130e+002	(-6.40111036178991e-003dB,-2.20128627949248e+000°)
1.06407692881216e+002	(-6.43061057052479e-003dB,-2.20635163683390e+000°)
1.06652742614662e+002	(-6.46024665832222e-003dB,-2.21142863129125e+000°)
1.06898356681101e+002	(-6.49001925035386e-003dB,-2.21651728947002e+000°)
1.07144536380154e+002	(-6.51992897464648e-003dB,-2.22161763803568e+000°)
1.07391283014436e+002	(-6.54997646212172e-003dB,-2.22672970371375e+000°)
1.07638597889559e+002	(-6.58016234658557e-003dB,-2.23185351328991e+000°)
1.07886482314144e+002	(-6.61048726476619e-003dB,-2.23698909361018e+000°)
1.08134937599825e+002	(-6.64095185631021e-003dB,-2.24213647158104e+000°)
1.08383965061256e+002	(-6.67155676378958e-003dB,-2.24729567416953e+000°)
1.08633566016120e+002	(-6.70230263274621e-003dB,-2.25246672840340e+000°)
1.08883741785133e+002	(-6.73319011166213e-003dB,-2.25764966137124e+000°)
1.09134493692054e+002	(-6.76421985201758e-003dB,-2.26284450022261e+000°)
1.09385823063689e+002	(-6.79539250826514e-003dB,-2.26805127216817e+000°)
1.09637731229900e+002	(-6.82670873786940e-003dB,-2.27327000447980e+000°)
1.09890219523612e+002	(-6.85816920131104e-003dB,-2.27850072449075e+000°)
1.10143289280821e+002	(-6.88977456211013e-003dB,-2.28374345959576e+000°)
1.10396941840596e+002	(-6.92152548680698e-003dB,-2.28899823725119e+000°)
1.10651178545092e+002	(-6.95342264503664e-003dB,-2.29426508497517e+000°)
1.10906000739557e+002	(-6.98546670946731e-003dB,-2.29954403034770e+000°)
1.11161409772333e+002	(-7.01765835589313e-003dB,-2.30483510101081e+000°)
1.11417406994870e+002	(-7.04999826318129e-003dB,-2.31013832466868e+000°)
1.11673993761729e+002	(-7.08248711332817e-003dB,-2.31545372908777e+000°)
1.11931171430590e+002	(-7.11512559145470e-003dB,-2.32078134209697e+000°)
1.12188941362261e+002	(-7.14791438582873e-003dB,-2.32612119158771e+000°)
1.12447304920684e+002	(-7.18085418786520e-003dB,-2.33147330551412e+000°)
1.12706263472941e+002	(-7.21394569216880e-003dB,-2.33683771189312e+000°)
1.12965818389261e+002	(-7.24718959651482e-003dB,-2.34221443880462e+000°)
1.13225971043033e+002	(-7.28058660189378e-003dB,-2.34760351439159e+000°)
1.13486722810804e+002	(-7.31413741250189e-003dB,-2.35300496686023e+000°)
1.13748075072293e+002	(-7.34784273577508e-003dB,-2.35841882448009e+000°)
1.14010029210398e+002	(-7.38170328238918e-003dB,-2.36384511558423e+000°)
1.14272586611199e+002	(-7.41571976627839e-003dB,-2.36928386856931e+000°)
1.14535748663969e+002	(-7.44989290465486e-003dB,-2.37473511189578e+000°)
1.14799516761182e+002	(-7.48422341802617e-003dB,-2.38019887408795e+000°)
1.15063892298517e+002	(-7.51871203019561e-003dB,-2.38567518373419e+000°)
1.15328876674866e+002	(-7.55335946829510e-003dB,-2.39116406948703e+000°)
1.15594471292347e+002	(-7.58816646278548e-003dB,-2.39666556006332e+000°)
1.15860677556302e+002	(-7.62313374748174e-003dB,-2.40217968424432e+000°)
1.16127496875311e+002	(-7.65826205956869e-003dB,-2.40770647087589e+000°)
1.16394930661201e+002	(-7.69355213960019e-003dB,-2.41324594886862e+000°)
1.16662980329046e+002	(-7.72900473154184e-003dB,-2.41879814719790e+000°)
1.16931647297180e+002	(-7.76462058276441e-003dB,-2.42436309490418e+000°)
1.17200932987205e+002	(-7.80040044406240e-003dB,-2.42994082109298e+000°)
1.17470838823996e+002	(-7.83634506967743e-003dB,-2.43553135493511e+000°)
1.17741366235708e+002	(-7.87245521731481e-003dB,-2.44113472566678e+000°)
1.18012516653787e+002	(-7.90873164814769e-003dB,-2.44675096258975e+000°)
1.18284291512975e+002	(-7.94517512684521e-003dB,-2.45238009507145e+000°)
1.18556692251316e+002	(-7.98178642157854e-003dB,-2.45802215254513e+000°)
1.18829720310169e+002	(-8.01856630404714e-003dB,-2.46367716451000e+000°)
1.19103377134210e+002	(-8.05551554947902e-003dB,-2.46934516053138e+000°)
1.19377664171443e+002	(-8.09263493667724e-003dB,-2.47502617024082e+000°)
1.19652582873207e+002	(-8.12992524798836e-003dB,-2.48072022333624e+000°)
1.19928134694181e+002	(-8.16738726936918e-003dB,-2.48642734958207e+000°)
1.20204321092398e+002	(-8.20502179037549e-003dB,-2.49214757880943e+000°)
1.20481143529245e+002	(-8.24282960416800e-003dB,-2.49788094091622e+000°)
1.20758603469477e+002	(-8.28081150756476e-003dB,-2.50362746586726e+000°)
1.21036702381221e+002	(-8.31896830102882e-003dB,-2.50938718369448e+000°)
1.21315441735985e+002	(-8.35730078868782e-003dB,-2.51516012449702e+000°)
1.21594823008667e+002	(-8.39580977836311e-003dB,-2.52094631844138e+000°)
1.21874847677558e+002	(-8.43449608157491e-003dB,-2.52674579576157e+000°)
1.22155517224359e+002	(-8.47336051357048e-003dB,-2.53255858675924e+000°)
1.22436833134179e+002	(-8.51240389332827e-003dB,-2.53838472180383e+000°)
1.22718796895549e+002	(-8.55162704357650e-003dB,-2.54422423133271e+000°)
1.23001410000426e+002	(-8.59103079083204e-003dB,-2.55007714585134e+000°)
1.23284673944206e+002	(-8.63061596537456e-003dB,-2.55594349593337e+000°)
1.23568590225726e+002	(-8.67038340132212e-003dB,-2.56182331222083e+000°)
1.23853160347275e+002	(-8.71033393658222e-003dB,-2.56771662542424e+000°)
1.24138385814605e+002	(-8.75046841293114e-003dB,-2.57362346632276e+000°)
1.24424268136931e+002	(-8.79078767598243e-003dB,-2.57954386576437e+000°)
1.24710808826946e+002	(-8.83129257523736e-003dB,-2.58547785466596e+000°)
1.24998009400827e+002	(-8.87198396408513e-003dB,-2.59142546401350e+000°)
1.25285871378241e+002	(-8.91286269983314e-003dB,-2.59738672486219e+000°)
1.25574396282357e+002	(-8.95392964370821e-003dB,-2.60336166833659e+000°)
1.25863585639849e+002	(-8.99518566088290e-003dB,-2.60935032563079e+000°)
1.26153440980909e+002	(-9.03663162051443e-003dB,-2.61535272800850e+000°)
1.26443963839253e+002	(-9.07826839571887e-003dB,-2.62136890680328e+000°)
1.26735155752127e+002	(-9.12009686362553e-003dB,-2.62739889341862e+000°)
1.27027018260319e+002	(-9.16211790537044e-003dB,-2.63344271932808e+000°)
1.27319552908165e+002	(-9.20433240615075e-003dB,-2.63950041607550e+000°)
1.27612761243556e+002	(-9.24674125520278e-003dB,-2.64557201527508e+000°)
1.27906644817950e+002	(-9.28934534583323e-003dB,-2.65165754861157e+000°)
1.28201205186377e+002	(-9.33214557545036e-003dB,-2.65775704784039e+000°)
1.28496443907448e+002	(-9.37514284557782e-003dB,-2.66387054478780e+000°)
1.28792362543362e+002	(-9.41833806185590e-003dB,-2.66999807135102e+000°)
1.29088962659918e+002	(-9.46173213408724e-003dB,-2.67613965949840e+000°)
1.29386245826521e+002	(-9.50532597623133e-003dB,-2.68229534126956e+000°)
1.29684213616187e+002	(-9.54912050644631e-003dB,-2.68846514877553e+000°)
1.29982867605558e+002	(-9.59311664708452e-003dB,-2.69464911419893e+000°)
1.30282209374905e+002	(-9.63731532473234e-003dB,-2.70084726979407e+000°)
1.30582240508139e+002	(-9.68171747020959e-003dB,-2.70705964788713e+000°)
1.30882962592819e+002	(-9.72632401861327e-003dB,-2.71328628087631e+000°)
1.31184377220160e+002	(-9.77113590931308e-003dB,-2.71952720123196e+000°)
1.31486485985039e+002	(-9.81615408598938e-003dB,-2.72578244149675e+000°)
1.31789290486009e+002	(-9.86137949663644e-003dB,-2.73205203428581e+000°)
1.32092792325304e+002	(-9.90681309359560e-003dB,-2.73833601228687e+000°)
1.32396993108846e+002	(-9.95245583356622e-003dB,-2.74463440826044e+000°)
1.32701894446257e+002	(-9.99830867763404e-003dB,-2.75094725503991e+000°)
1.33007497950866e+002	(-1.00443725912763e-002dB,-2.75727458553176e+000°)
1.33313805239714e+002	(-1.00906485444066e-002dB,-2.76361643271567e+000°)
1.33620817933572e+002	(-1.01371375113588e-002dB,-2.76997282964469e+000°)
1.33928537656937e+002	(-1.01838404709586e-002dB,-2.77634380944536e+000°)
1.34236966038053e+002	(-1.02307584064723e-002dB,-2.78272940531791e+000°)
1.34546104708909e+002	(-1.02778923057107e-002dB,-2.78912965053638e+000°)
1.34855955305255e+002	(-1.03252431609801e-002dB,-2.79554457844877e+000°)
1.35166519466607e+002	(-1.03728119691368e-002dB,-2.80197422247722e+000°)
1.35477798836258e+002	(-1.04205997316019e-002dB,-2.80841861611813e+000°)
1.35789795061283e+002	(-1.04686074543879e-002dB,-2.81487779294231e+000°)
1.36102509792553e+002	(-1.05168361480948e-002dB,-2.82135178659518e+000°)
1.36415944684738e+002	(-1.05652868279700e-002dB,-2.82784063079687e+000°)
1.36730101396321e+002	(-1.06139605138889e-002dB,-2.83434435934240e+000°)
1.37044981589603e+002	(-1.06628582304192e-002dB,-2.84086300610184e+000°)
1.37360586930714e+002	(-1.07119810067893e-002dB,-2.84739660502042e+000°)
1.37676919089620e+002	(-1.07613298769634e-002dB,-2.85394519011874e+000°)
1.37993979740133e+002	(-1.08109058796171e-002dB,-2.86050879549290e+000°)
1.38311770559920e+002	(-1.08607100582061e-002dB,-2.86708745531465e+000°)
1.38630293230512e+002	(-1.09107434609304e-002dB,-2.87368120383153e+000°)
1.38949549437312e+002	(-1.09610071408124e-002dB,-2.88029007536708e+000°)
1.39269540869605e+002	(-1.10115021556869e-002dB,-2.88691410432092e+000°)
1.39590269220564e+002	(-1.10622295682153e-002dB,-2.89355332516898e+000°)
1.39911736187264e+002	(-1.11131904459452e-002dB,-2.90020777246357e+000°)
1.40233943470687e+002	(-1.11643858612876e-002dB,-2.90687748083364e+000°)
1.40556892775733e+002	(-1.12158168915763e-002dB,-2.91356248498484e+000°)
1.40880585811227e+002	(-1.12674846190662e-002dB,-2.92026281969973e+000°)
1.41205024289930e+002	(-1.13193901309640e-002dB,-2.92697851983792e+000°)
1.41530209928547e+002	(-1.13715345194610e-002dB,-2.93370962033624e+000°)
1.41856144447738e+002	(-1.14239188817295e-002dB,-2.94045615620886e+000°)
1.42182829572124e+002	(-1.14765443199713e-002dB,-2.94721816254750e+000°)
1.42510267030298e+002	(-1.15294119414245e-002dB,-2.95399567452155e+000°)
1.42838458554834e+002	(-1.15825228584040e-002dB,-2.96078872737823e+000°)
1.43167405882295e+002	(-1.16358781882914e-002dB,-2.96759735644276e+000°)
1.43497110753246e+002	(-1.16894790536101e-002dB,-2.97442159711851e+000°)
1.43827574912257e+002	(-1.17433265819872e-002dB,-2.98126148488717e+000°)
1.44158800107917e+002	(-1.17974219062286e-002dB,-2.98811705530890e+000°)
1.44490788092843e+002	(-1.18517661643098e-002dB,-2.99498834402246e+000°)
1.44823540623687e+002	(-1.19063604994143e-002dB,-3.00187538674542e+000°)
1.45157059461146e+002	(-1.19612060599538e-002dB,-3.00877821927430e+000°)
1.45491346369973e+002	(-1.20163039995956e-002dB,-3.01569687748470e+000°)
1.45826403118985e+002	(-1.20716554772784e-002dB,-3.02263139733151e+000°)
1.46162231481071e+002	(-1.21272616572354e-002dB,-3.02958181484902e+000°)
1.46498833233203e+002	(-1.21831237090426e-002dB,-3.03654816615111e+000°)
1.46836210156448e+002	(-1.22392428076024e-002dB,-3.04353048743142e+000°)
1.47174364035972e+002	(-1.22956201331950e-002dB,-3.05052881496345e+000°)
1.47513296661053e+002	(-1.23522568715060e-002dB,-3.05754318510082e+000°)
1.47853009825089e+002	(-1.24091542136339e-002dB,-3.06457363427732e+000°)
1.48193505325609e+002	(-1.24663133561249e-002dB,-3.07162019900715e+000°)
1.48534784964281e+002	(-1.25237355009926e-002dB,-3.07868291588505e+000°)
1.48876850546922e+002	(-1.25814218557417e-002dB,-3.08576182158648e+000°)
1.49219703883507e+002	(-1.26393736334207e-002dB,-3.09285695286774e+000°)
1.49563346788182e+002	(-1.26975920525907e-002dB,-3.09996834656618e+000°)
1.49907781079269e+002	(-1.27560783373979e-002dB,-3.10709603960034e+000°)
1.50253008579275e+002	(-1.28148337175840e-002dB,-3.11424006897011e+000°)
1.50599031114909e+002	(-1.28738594285142e-002dB,-3.12140047175688e+000°)
1.50945850517084e+002	(-1.29331567111906e-002dB,-3.12857728512374e+000°)
1.51293468620929e+002	(-1.29927268122965e-002dB,-3.13577054631561e+000°)
1.51641887265801e+002	(-1.30525709842014e-002dB,-3.14298029265942e+000°)
1.51991108295291e+002	(-1.31126904850101e-002dB,-3.15020656156424e+000°)
1.52341133557238e+002	(-1.31730865785662e-002dB,-3.15744939052151e+000°)
1.52691964903733e+002	(-1.32337605344911e-002dB,-3.16470881710513e+000°)
1.53043604191136e+002	(-1.32947136282120e-002dB,-3.17198487897166e+000°)
1.53396053280079e+002	(-1.33559471409786e-002dB,-3.17927761386051e+000°)
1.53749314035482e+002	(-1.34174623598979e-002dB,-3.18658705959403e+000°)
1.54103388326557e+002	(-1.34792605779459e-002dB,-3.19391325407775e+000°)
1.54458278026821e+002	(-1.35413430940315e-002dB,-3.20125623530050e+000°)
1.54813985014108e+002	(-1.36037112129698e-002dB,-3.20861604133458e+000°)
1.55170511170574e+002	(-1.36663662455416e-002dB,-3.21599271033595e+000°)
1.55527858382710e+002	(-1.37293095085302e-002dB,-3.22338628054436e+000°)
1.55886028541352e+002	(-1.37925423247185e-002dB,-3.23079679028355e+000°)
1.56245023541691e+002	(-1.38560660229310e-002dB,-3.23822427796137e+000°)
1.56604845283281e+002	(-1.39198819380771e-002dB,-3.24566878207000e+000°)
1.56965495670051e+002	(-1.39839914111467e-002dB,-3.25313034118607e+000°)
1.57326976610316e+002	(-1.40483957892587e-002dB,-3.26060899397085e+000°)
1.57689290016783e+002	(-1.41130964256821e-002dB,-3.26810477917042e+000°)
1.58052437806567e+002	(-1.41780946798735e-002dB,-3.27561773561581e+000°)
1.58416421901196e+002	(-1.42433919174806e-002dB,-3.28314790222319e+000°)
1.58781244226623e+002	(-1.43089895104066e-002dB,-3.29069531799405e+000°)
1.59146906713238e+002	(-1.43748888368022e-002dB,-3.29826002201530e+000°)
1.59513411295874e+002	(-1.44410912811178e-002dB,-3.30584205345953e+000°)
1.59880759913823e+002	(-1.45075982341278e-002dB,-3.31344145158511e+000°)
1.60248954510840e+002	(-1.45744110929406e-002dB,-3.32105825573637e+000°)
1.60617997035159e+002	(-1.46415312610618e-002dB,-3.32869250534380e+000°)
1.60987889439498e+002	(-1.47089601483913e-002dB,-3.33634423992417e+000°)
1.61358633681074e+002	(-1.47766991712670e-002dB,-3.34401349908073e+000°)
1.61730231721611e+002	(-1.48447497524885e-002dB,-3.35170032250338e+000°)
1.62102685527349e+002	(-1.49131133213588e-002dB,-3.35940474996881e+000°)
1.62475997069059e+002	(-1.49817913136922e-002dB,-3.36712682134070e+000°)
1.62850168322048e+002	(-1.50507851718680e-002dB,-3.37486657656987e+000°)
1.63225201266174e+002	(-1.51200963448333e-002dB,-3.38262405569444e+000°)
1.63601097885853e+002	(-1.51897262881558e-002dB,-3.39039929884004e+000°)
1.63977860170071e+002	(-1.52596764640481e-002dB,-3.39819234621993e+000°)
1.64355490112395e+002	(-1.53299483413836e-002dB,-3.40600323813521e+000°)
1.64733989710985e+002	(-1.54005433957507e-002dB,-3.41383201497494e+000°)
1.65113360968598e+002	(-1.54714631094516e-002dB,-3.42167871721637e+000°)
1.65493605892607e+002	(-1.55427089715764e-002dB,-3.42954338542506e+000°)
1.65874726495008e+002	(-1.56142824779820e-002dB,-3.43742606025510e+000°)
1.66256724792427e+002	(-1.56861851313680e-002dB,-3.44532678244920e+000°)
1.66639602806138e+002	(-1.57584184412798e-002dB,-3.45324559283896e+000°)
1.67023362562067e+002	(-1.58309839241476e-002dB,-3.46118253234496e+000°)
1.67408006090808e+002	(-1.59038831033160e-002dB,-3.46913764197698e+000°)
1.67793535427629e+002	(-1.59771175090934e-002dB,-3.47711096283413e+000°)
1.68179952612487e+002	(-1.60506886787408e-002dB,-3.48510253610507e+000°)
1.68567259690037e+002	(-1.61245981565460e-002dB,-3.49311240306813e+000°)
1.68955458709639e+002	(-1.61988474938503e-002dB,-3.50114060509153e+000°)
1.69344551725378e+002	(-1.62734382490385e-002dB,-3.50918718363349e+000°)
1.69734540796066e+002	(-1.63483719876180e-002dB,-3.51725218024249e+000°)
1.70125427985256e+002	(-1.64236502822432e-002dB,-3.52533563655734e+000°)
1.70517215361255e+002	(-1.64992747127151e-002dB,-3.53343759430743e+000°)
1.70909904997133e+002	(-1.65752468660548e-002dB,-3.54155809531286e+000°)
1.71303498970733e+002	(-1.66515683365252e-002dB,-3.54969718148465e+000°)
1.71697999364684e+002	(-1.67282407256243e-002dB,-3.55785489482487e+000°)
1.72093408266411e+002	(-1.68052656421760e-002dB,-3.56603127742682e+000°)
1.72489727768146e+002	(-1.68826447023320e-002dB,-3.57422637147523e+000°)
1.72886959966938e+002	(-1.69603795296097e-002dB,-3.58244021924643e+000°)
1.73285106964669e+002	(-1.70384717549230e-002dB,-3.59067286310847e+000°)
1.73684170868058e+002	(-1.71169230166151e-002dB,-3.59892434552137e+000°)
1.74084153788676e+002	(-1.71957349605068e-002dB,-3.60719470903723e+000°)
1.74485057842959e+002	(-1.72749092399048e-002dB,-3.61548399630045e+000°)
1.74886885152216e+002	(-1.73544475156533e-002dB,-3.62379225004785e+000°)
1.75289637842639e+002	(-1.74343514561652e-002dB,-3.63211951310892e+000°)
1.75693318045320e+002	(-1.75146227374571e-002dB,-3.64046582840591e+000°)
1.76097927896256e+002	(-1.75952630431753e-002dB,-3.64883123895406e+000°)
1.76503469536365e+002	(-1.76762740646378e-002dB,-3.65721578786177e+000°)
1.76909945111495e+002	(-1.77576575008646e-002dB,-3.66561951833073e+000°)
1.77317356772434e+002	(-1.78394150586154e-002dB,-3.67404247365615e+000°)
1.77725706674925e+002	(-1.79215484524317e-002dB,-3.68248469722690e+000°)
1.78134996979675e+002	(-1.80040594046572e-002dB,-3.69094623252570e+000°)
1.78545229852367e+002	(-1.80869496454741e-002dB,-3.69942712312929e+000°)
1.78956407463671e+002	(-1.81702209129446e-002dB,-3.70792741270859e+000°)
1.79368531989257e+002	(-1.82538749530551e-002dB,-3.71644714502890e+000°)
1.79781605609803e+002	(-1.83379135197289e-002dB,-3.72498636395007e+000°)
1.80195630511013e+002	(-1.84223383748931e-002dB,-3.73354511342664e+000°)
1.80610608883620e+002	(-1.85071512884775e-002dB,-3.74212343750808e+000°)
1.81026542923406e+002	(-1.85923540384714e-002dB,-3.75072138033891e+000°)
1.81443434831207e+002	(-1.86779484109706e-002dB,-3.75933898615890e+000°)
1.81861286812928e+002	(-1.87639362001928e-002dB,-3.76797629930322e+000°)
1.82280101079556e+002	(-1.88503192085194e-002dB,-3.77663336420267e+000°)
1.82699879847166e+002	(-1.89370992465433e-002dB,-3.78531022538380e+000°)
1.83120625336941e+002	(-1.90242781330942e-002dB,-3.79400692746910e+000°)
1.83542339775175e+002	(-1.91118576952716e-002dB,-3.80272351517720e+000°)
1.83965025393291e+002	(-1.91998397685013e-002dB,-3.81146003332302e+000°)
1.84388684427852e+002	(-1.92882261965541e-002dB,-3.82021652681797e+000°)
1.84813319120570e+002	(-1.93770188315856e-002dB,-3.82899304067008e+000°)
1.85238931718319e+002	(-1.94662195341945e-002dB,-3.83778961998423e+000°)
1.85665524473149e+002	(-1.95558301734241e-002dB,-3.84660630996231e+000°)
1.86093099642295e+002	(-1.96458526268348e-002dB,-3.85544315590338e+000°)
1.86521659488192e+002	(-1.97362887805193e-002dB,-3.86430020320385e+000°)
1.86951206278483e+002	(-1.98271405291510e-002dB,-3.87317749735768e+000°)
